"FID","0143"
"FID=SEL-311C-1-R508-V0-Z104101-D20150219","0949"
"MONTH","DAY","YEAR","HOUR","MIN","SEC","MSEC","0ACA"
4,29,2021,23,6,29,87,"040D"
"REF_NUM","FREQ","SAM/CYC_A","SAM/CYC_D","NUM_OF_CYC","EVENT","LOCATION","SHOT","TARGETS","IA","IB","IC","IN","IG","3I2","FLT_LOC_Z","FLT_LOC_ANG","PER_UNIT_LL","FLT_R","29DE"
10154,59.99,128,4,62,"AG T",37.82,2,"TRIP TIME 51 ",52,6,6,52,52,52,3.29,55.78,0.84,100.59,"1242"
"IA","IB","IC","IN","IG","VA(kV)","VB(kV)","VC(kV)","VS(kV)","V1MEM","FREQ","VDC","TRIG","TLED11 TLED12 TLED13 TLED14 TLED15 TLED16 TLED17 TLED18 TLED19 TLED20 TLED21 TLED22 TLED23 TLED24 TLED25 TLED26 M1P M1PT Z1G Z1GT M2P M2PT Z2G Z2GT Z1T Z2T 50P1 67P1 67P1T 50G1 67G1 67G1T 51G 51GT 51GR LOP ILOP ZLOAD ZLOUT ZLIN LB1 LB2 LB3 LB4 LB5 LB6 LB7 LB8 LB9 LB10 LB11 LB12 LB13 LB14 LB15 LB16 RB1 RB2 RB3 RB4 RB5 RB6 RB7 RB8 RB9 RB10 RB11 RB12 RB13 RB14 RB15 RB16 LT1 LT2 LT3 LT4 LT5 LT6 LT7 LT8 LT9 LT10 LT11 LT12 LT13 LT14 LT15 LT16 SV1 SV2 SV3 SV4 SV1T SV2T SV3T SV4T SV5 SV6 SV7 SV8 SV5T SV6T SV7T SV8T SV9 SV10 SV11 SV12 SV9T SV10T SV11T SV12T SV13 SV14 SV15 SV16 SV13T SV14T SV15T SV16T MAB1 MBC1 MCA1 MAB2 MBC2 MCA2 CVTBL SOTFT MAG1 MBG1 MCG1 MAG2 MBG2 MCG2 DCHI DCLO BCW BCWA BCWB BCWC FIDEN FSA FSB FSC SG1 SG2 SG3 SG4 SG5 SG6 OC CC CLOSE CF TRGTR 52A 3PO SOTFE VPOLV 50L PDEM GDEM QDEM TRIP 50QF 50QR 50GF 50GR 32QF 32QR 32GF 32GR 32VE 32QGE 32IE 32QE F32I R32I F32Q R32Q F32QG R32QG F32V R32V * * IN106 IN105 IN104 IN103 IN102 IN101 ALARM OUT107 OUT106 OUT105 OUT104 OUT103 OUT102 OUT101 M3P M3PT Z3G Z3GT M4P M4PT Z4G Z4GT Z3T Z4T 50P2 67P2 67P2T 50P3 67P3 67P3T 50G2 67G2 67G2T 50G3 67G3 67G3T * * 51P 51PT 51PR Z1X 59VA MAB3 MBC3 MCA3 MAG3 MBG3 MCG3 27S 59S * 59VP 59VS SF 25A1 25A2 RCSF OPTMN RSTMN * PMDOK 79RS 79CY 79LO SH0 SH1 SH2 SH3 SH4 MAB4 MBC4 MCA4 MAG4 MBG4 MCG4 TSOK TIRIG XAG1 XBG1 XCG1 XAG2 XBG2 XCG2 XAG3 XBG3 XCG3 XAG4 XBG4 XCG4 OSTI OSTO OST 50ABC X5ABC X6ABC OSB OSB1 OSB2 OSB3 OSB4 UBOSB 50G4 67G4 67G4T * MPP1 MABC1 MPP2 MABC2 50Q1 67Q1 67Q1T 50Q2 67Q2 67Q2T 59N1 59N2 50Q3 67Q3 67Q3T 50Q4 67Q4 67Q4T 59Q 59V1 51Q 51QT 51QR 67QUBF 67QUBR Z2PGS 67QG2S BTX Z3XT DSTRT NSTRT STOP Z3RB KEY EKEY ECTT PTRX UBB1 UBB2 UBB WFC PT PTRX1 PTRX2 27A 27B 27C 59A 59B 59C 3P27 3P59 27AB 27BC 27CA 59AB 59BC 59CA * * OUT201 OUT202 OUT203 OUT204 OUT205 OUT206 OUT207 OUT208 OUT209 OUT210 OUT211 OUT212 MPP3 MABC3 MPP4 MABC4 IN208 IN207 IN206 IN205 IN204 IN203 IN202 IN201 RMB8A RMB7A RMB6A RMB5A RMB4A RMB3A RMB2A RMB1A TMB8A TMB7A TMB6A TMB5A TMB4A TMB3A TMB2A TMB1A RMB8B RMB7B RMB6B RMB5B RMB4B RMB3B RMB2B RMB1B TMB8B TMB7B TMB6B TMB5B TMB4B TMB3B TMB2B TMB1B LBOKB CBADB RBADB ROKB LBOKA CBADA RBADA ROKA 81D1 81D2 81D3 81D4 81D5 81D6 27B81 * 81D1T 81D2T 81D3T 81D4T 81D5T 81D6T * * 50A1 50B1 50C1 50A2 50B2 50C2 50A3 50B3 50C3 50A4 50B4 50C4 * 50A 50B 50C * * * * * 3V0 DELTA WYE 50P4 67P4 67P4T * * * * FREQOK * * * * Z2SEQT M2PSEQT Z2GSEQT * Z1XP Z1XG * * * * * DD * LINK5A LINK5B LNKFAIL P5ASEL P5BSEL TSNTPP TSNTPB DST DSTP LPSEC LPSECP TQUAL4 TQUAL3 TQUAL2 TQUAL1 * V0GAIN INMET ICMET IBMET IAMET NDEM TESTDB RST_HAL RSTTRGT RST_MML RST_ENE RST_HIS RST_BK RST_PDM RST_DEM SFAST SSLOW LOPRST PMTRIG TREA1 TREA2 TREA3 TREA4 LOP1 LOP2 LOP3 LOP4 * * * * * * * * * * * * * * * * * * * * * * * * * * * * * * * * * * * * * * * * * * * * * * * * * * * * * * * * 50LA 50LB 50LC * * COMMT * * * * DTT * PB1PUL PB2PUL PB3PUL PB4PUL PB5PUL PB6PUL PB7PUL PB8PUL LED1 LED2 LED3 LED4 LED5 LED6 LED7 LED8 LED9 * LED10 * * * PB10PUL PB9PUL * * * * * * * RSTDNPE LTRIP LTIME LCOMM LSOTF LZONE1 LZONE2 LZONE3 LZONE4 L51 * * * * * * * LV1 LV2 LV3 LV4 LV5 LV6 LV7 LV8 LV9 LV10 LV11 LV12 LV13 LV14 LV15 LV16 LV17 LV18 LV19 LV20 LV21 LV22 LV23 LV24 LV25 LV26 LV27 LV28 LV29 LV30 LV31 LV32 VB001 VB002 VB003 VB004 VB005 VB006 VB007 VB008 VB009 VB010 VB011 VB012 VB013 VB014 VB015 VB016 VB017 VB018 VB019 VB020 VB021 VB022 VB023 VB024 VB025 VB026 VB027 VB028 VB029 VB030 VB031 VB032 VB033 VB034 VB035 VB036 VB037 VB038 VB039 VB040 VB041 VB042 VB043 VB044 VB045 VB046 VB047 VB048 VB049 VB050 VB051 VB052 VB053 VB054 VB055 VB056 VB057 VB058 VB059 VB060 VB061 VB062 VB063 VB064 VB065 VB066 VB067 VB068 VB069 VB070 VB071 VB072 VB073 VB074 VB075 VB076 VB077 VB078 VB079 VB080 VB081 VB082 VB083 VB084 VB085 VB086 VB087 VB088 VB089 VB090 VB091 VB092 VB093 VB094 VB095 VB096 VB097 VB098 VB099 VB100 VB101 VB102 VB103 VB104 VB105 VB106 VB107 VB108 VB109 VB110 VB111 VB112 VB113 VB114 VB115 VB116 VB117 VB118 VB119 VB120 VB121 VB122 VB123 VB124 VB125 VB126 VB127 VB128 SALARM ACCESS ALRMOUT * HALARMA HALARMP HALARML HALARM * * PASNVAL ACCESSP GRPSW SETCHG CHGPASS BADPASS RB17 RB18 RB19 RB20 RB21 RB22 RB23 RB24 RB25 RB26 RB27 RB28 RB29 RB30 RB31 RB32 * * * * * * BFT BFTRIP 50BFA 50BFB 50BFC 50BFT * * * RT * * * * * * * * * * * * * * * * * * * * * * * * ESTRA ESTRB ESTRC ESCLA ESCLB ESCLC ESOAL MSOAL MSTR * * * MSCL * * * ","F5F6"
-27.125,-5.488,0.388,-30.437,-32.225,-21.588,-19.266,40.188,-0.070,32.5,59.99,127, , ,"1079"
-24.800,-5.350,0.100,-28.175,-30.050,-19.848,-21.018,40.176,-0.063,32.5,59.99,127, , ,"1051"
-22.250,-5.250,-0.250,-25.875,-27.750,-18.078,-22.728,40.068,-0.070,32.5,59.99,127, , ,"1092"
-19.675,-5.163,-0.550,-23.475,-25.388,-16.284,-24.384,39.888,-0.105,32.5,59.99,127, , ,"10B6"
-16.963,-5.075,-0.838,-21.062,-22.875,-14.466,-25.938,39.570,-0.077,32.5,59.99,127, , ,"10B4"
-14.313,-5.088,-1.025,-18.588,-20.425,-12.612,-27.432,39.132,-0.091,32.5,59.99,127, , ,"108C"
-11.513,-5.175,-1.238,-16.150,-17.925,-10.704,-28.938,38.682,-0.084,32.5,59.99,127, , ,"109F"
-8.813,-5.213,-1.463,-13.650,-15.488,-8.778,-30.372,38.166,-0.049,32.5,59.99,127, , ,"1046"
-6.213,-5.200,-1.550,-11.150,-12.963,-6.834,-31.752,37.578,-0.049,32.5,59.99,127, , ,"102B"
-3.575,-5.175,-1.663,-8.588,-10.413,-4.884,-33.078,36.930,-0.063,32.5,59.99,127, , ,"1015"
-1.075,-5.125,-1.863,-6.163,-8.063,-2.946,-34.326,36.204,-0.070,32.5,59.99,127, , ,"0FC8"
1.213,-4.913,-2.150,-3.975,-5.850,-0.966,-35.436,35.388,-0.098,32.5,59.99,127, , ,"0FB1"
3.325,-4.562,-2.500,-1.825,-3.738,1.008,-36.444,34.446,-0.063,32.5,59.99,127, , ,"0F6A"
5.050,-4.163,-2.763,0.088,-1.875,2.994,-37.314,33.360,-0.063,32.5,59.99,127, , ,"0F48"
6.625,-3.813,-2.913,1.825,-0.100,4.956,-38.058,32.184,-0.070,32.5,59.99,127, , ,"0F42"
8.313,-3.613,-2.913,3.588,1.787,6.840,-38.712,30.924,-0.084,32.5,59.99,127, , ,"0F29"
9.988,-3.400,-2.913,5.525,3.675,8.670,-39.282,29.568,-0.084,32.5,59.99,127, , ,"0F3F"
11.888,-3.075,-3.013,7.675,5.800,10.458,-39.750,28.158,-0.091,32.5,59.99,127, , ,"0F8C"
13.788,-2.713,-3.038,9.850,8.038,12.234,-40.092,26.670,-0.056,32.5,59.99,127, , ,"0F84"
15.550,-2.375,-2.963,12.038,10.213,13.992,-40.314,25.080,-0.042,32.5,59.99,127, , ,"0FCD"
17.538,-2.150,-2.813,14.275,12.575,15.774,-40.452,23.484,-0.056,32.5,59.99,127, , ,"0FE6"
19.638,-2.013,-2.913,16.500,14.713,17.568,-40.536,21.816,-0.070,32.5,59.99,127, , ,"0FDC"
21.763,-1.775,-3.250,18.600,16.738,19.338,-40.524,20.076,-0.077,32.5,59.99,127, , ,"0FE7"
24.038,-1.450,-3.638,20.700,18.950,21.036,-40.434,18.246,-0.063,32.5,59.99,127, , ,"0FD2"
26.038,-1.100,-3.950,22.788,20.987,22.686,-40.254,16.338,-0.084,32.5,59.99,127, , ,"0FED"
28.125,-0.913,-4.112,24.937,23.100,24.300,-39.990,14.418,-0.077,32.5,59.99,127, , ,"0FD7"
30.300,-0.750,-4.237,27.138,25.312,25.860,-39.654,12.480,-0.056,32.5,59.99,127, , ,"0FD8"
32.513,-0.500,-4.362,29.275,27.650,27.390,-39.210,10.548,-0.028,32.5,59.99,127, , ,"0FD9"
34.625,-0.250,-4.700,31.325,29.675,28.860,-38.700,8.604,-0.063,32.5,59.99,127, , ,"0FB0"
36.675,0.088,-5.088,33.288,31.675,30.282,-38.130,6.654,-0.063,32.5,59.99,127, , ,"0F97"
38.563,0.288,-5.363,35.200,33.487,31.620,-37.470,4.656,-0.070,32.5,59.99,127, , ,"0F89"
40.338,0.438,-5.588,36.888,35.188,32.904,-36.720,2.670,-0.056,32.5,59.99,127, ,"E3900000800000000010002300000000000C80130FAF280D0000000120000424000000000000000000000000000005000000000000000000010100006E0F7C00200800000000000008000026A000C08000000000000000000000000000000000000000002000000000000000000000","3AB4"
41.938,0.688,-5.825,38.563,36.800,34.098,-35.910,0.660,-0.070,24.0,59.99,127, , ,"0F93"
43.425,1.075,-5.988,40.238,38.513,35.196,-34.962,-1.386,-0.063,24.0,59.99,127, , ,"0FC3"
44.675,1.525,-6.150,41.813,40.050,36.174,-33.870,-3.366,-0.063,24.0,59.99,127, , ,"0FA8"
45.738,1.775,-6.038,43.175,41.475,37.050,-32.724,-5.340,-0.056,24.0,59.99,127, , ,"0FB7"
46.575,1.788,-5.725,44.313,42.638,37.806,-31.494,-7.224,-0.049,24.0,59.99,127, , ,"0FCB"
47.350,1.850,-5.413,45.288,43.788,38.412,-30.198,-9.054,-0.070,24.0,59.99,127, , ,"0FBD"
47.763,2.050,-5.288,46.175,44.525,38.886,-28.818,-10.800,-0.077,24.0,59.99,127, , ,"0FFD"
47.825,2.363,-5.262,46.813,44.925,39.216,-27.342,-12.492,-0.056,24.0,59.99,127, , ,"0FEF"
48.000,2.688,-5.275,47.125,45.413,39.414,-25.782,-14.148,-0.070,24.0,59.99,127, , ,"0FE7"
48.138,2.850,-5.275,47.288,45.713,39.546,-24.150,-15.864,-0.084,24.0,59.99,127, , ,"0FFC"
48.213,3.000,-5.375,47.425,45.838,39.618,-22.488,-17.592,-0.077,24.0,59.99,127, , ,"0FFA"
48.163,3.175,-5.512,47.425,45.825,39.636,-20.718,-19.338,-0.049,24.0,59.99,127, , ,"0FF9"
47.988,3.363,-5.562,47.450,45.788,39.612,-18.924,-21.108,-0.035,24.0,59.99,127, , ,"1000"
47.813,3.475,-5.488,47.425,45.800,39.522,-17.082,-22.842,-0.056,24.0,59.99,127, , ,"0FF4"
47.450,3.475,-5.275,47.288,45.650,39.354,-15.240,-24.534,-0.042,24.0,59.99,127, , ,"0FED"
46.938,3.475,-5.012,47.075,45.400,39.102,-13.356,-26.118,-0.042,24.0,59.99,127, , ,"0FDC"
46.300,3.550,-4.812,46.738,45.038,38.754,-11.436,-27.576,-0.063,24.0,59.99,127, , ,"0FED"
45.538,3.738,-4.700,46.138,44.575,38.322,-9.510,-29.034,-0.084,24.0,59.99,127, , ,"0FBD"
44.538,3.888,-4.663,45.475,43.763,37.830,-7.560,-30.468,-0.091,24.0,59.99,127, , ,"0FD2"
43.600,3.950,-4.525,44.575,43.025,37.254,-5.568,-31.824,-0.063,24.0,59.99,127, , ,"0FB3"
42.488,3.975,-4.387,43.563,42.075,36.600,-3.558,-33.144,-0.091,24.0,59.99,127, , ,"0FC2"
41.350,3.950,-4.225,42.575,41.075,35.856,-1.578,-34.386,-0.070,24.0,59.99,127, , ,"0FB8"
39.988,3.925,-3.913,41.550,40.000,34.980,0.402,-35.580,-0.056,24.0,59.99,127, , ,"0F82"
38.425,3.900,-3.463,40.450,38.863,34.044,2.382,-36.630,-0.077,24.0,59.99,127, , ,"0F82"
36.850,3.813,-2.988,39.213,37.675,33.024,4.344,-37.530,-0.084,24.0,59.99,127, , ,"0F90"
35.100,3.688,-2.575,37.738,36.213,31.914,6.264,-38.238,-0.077,24.0,59.99,127, , ,"0F93"
33.225,3.525,-2.150,36.150,34.600,30.678,8.154,-38.844,-0.084,24.0,59.99,127, , ,"0F7C"
31.237,3.463,-1.775,34.438,32.925,29.340,10.020,-39.312,-0.077,24.0,59.99,127, , ,"0FAD"
29.100,3.363,-1.475,32.563,30.987,27.912,11.862,-39.696,-0.084,24.0,59.99,127, , ,"0FC7"
26.950,3.350,-1.263,30.475,29.038,26.370,13.692,-39.972,-0.063,24.0,59.99,127, , ,"0FBD"
24.500,3.313,-1.038,28.312,26.775,24.756,15.504,-40.152,-0.056,24.0,59.99,127, , ,"0FA3"
22.150,3.325,-0.838,26.100,24.638,23.100,17.316,-40.266,-0.063,24.0,59.99,127, ,"E3900000800000000010002300000000000C80130FAF280D0000000120000424000000000000000000000000000005000000000000000000010100006E0F7C00200800000000000008000026A000C08000000000000000000000000000000000000000002000000000000000000000","3AAA"
19.737,3.300,-0.713,23.888,22.325,21.402,19.110,-40.356,-0.070,-32.5,59.99,128, , ,"0FD0"
17.338,3.175,-0.400,21.538,20.113,19.656,20.868,-40.338,-0.084,-32.5,59.99,128, , ,"0FE0"
14.913,2.913,-0.025,19.225,17.800,17.880,22.602,-40.236,-0.077,-32.5,59.99,128, , ,"0FD7"
12.425,2.588,0.288,16.838,15.300,16.080,24.216,-40.056,-0.070,-32.5,59.99,128, , ,"0FAC"
9.938,2.388,0.513,14.375,12.837,14.262,25.770,-39.744,-0.077,-32.5,59.99,128, , ,"0F9F"
7.450,2.238,0.713,11.963,10.400,12.402,27.258,-39.312,-0.063,-32.5,59.99,128, , ,"0F6D"
4.937,2.163,0.950,9.538,8.050,10.518,28.740,-38.880,-0.070,-32.5,59.99,128, , ,"0F2B"
2.413,1.963,1.187,7.113,5.562,8.622,30.168,-38.370,-0.091,-32.5,59.99,128, , ,"0EED"
0.000,1.788,1.425,4.663,3.213,6.696,31.536,-37.776,-0.091,-32.5,59.99,128, , ,"0EF3"
-2.513,1.613,1.600,2.225,0.700,4.740,32.838,-37.098,-0.063,-32.5,59.99,128, , ,"0F05"
-4.800,1.388,1.863,-0.038,-1.550,2.772,34.074,-36.366,-0.077,-32.5,59.99,128, , ,"0F77"
-7.137,1.112,2.200,-2.238,-3.825,0.792,35.196,-35.514,-0.070,-32.5,59.99,128, , ,"0F64"
-9.125,0.688,2.563,-4.362,-5.875,-1.206,36.198,-34.584,-0.070,-32.5,59.99,128, , ,"0FB4"
-10.913,0.150,2.925,-6.262,-7.838,-3.192,37.086,-33.498,-0.091,-32.5,59.99,128, , ,"0FDE"
-12.575,-0.175,3.238,-8.000,-9.513,-5.142,37.830,-32.316,-0.084,-32.5,59.99,128, , ,"0FF6"
-14.388,-0.450,3.513,-9.763,-11.325,-7.038,38.478,-31.062,-0.091,-32.5,59.99,128, , ,"1037"
-16.338,-0.650,3.775,-11.675,-13.213,-8.886,39.048,-29.694,-0.105,-32.5,59.99,128, , ,"107D"
-18.312,-0.975,4.025,-13.725,-15.263,-10.656,39.522,-28.266,-0.105,-32.5,59.99,128, , ,"1096"
-20.312,-1.400,4.225,-15.938,-17.487,-12.456,39.852,-26.790,-0.091,-32.5,59.99,128, , ,"109D"
-22.275,-1.725,4.362,-18.088,-19.638,-14.238,40.080,-25.194,-0.077,-32.5,59.99,128, , ,"10A4"
-24.338,-1.925,4.400,-20.275,-21.863,-16.002,40.218,-23.592,-0.091,-32.5,59.99,128, , ,"1087"
-26.612,-2.113,4.612,-22.413,-24.112,-17.772,40.308,-21.936,-0.077,-32.5,59.99,128, , ,"1084"
-28.913,-2.363,4.950,-24.650,-26.325,-19.524,40.296,-20.190,-0.112,-32.5,59.99,128, , ,"1093"
-31.150,-2.700,5.325,-26.900,-28.525,-21.222,40.200,-18.348,-0.126,-32.5,59.99,128, , ,"1078"
-33.138,-3.025,5.525,-29.062,-30.638,-22.878,40.026,-16.428,-0.084,-32.5,59.99,128, , ,"109B"
-35.125,-3.250,5.488,-31.225,-32.888,-24.504,39.780,-14.520,-0.091,-32.5,59.99,128, , ,"109C"
-37.113,-3.338,5.400,-33.438,-35.050,-26.046,39.426,-12.582,-0.091,-32.5,59.99,128, , ,"1090"
-39.050,-3.563,5.350,-35.538,-37.263,-27.546,38.982,-10.674,-0.084,-32.5,59.99,128, , ,"10AF"
-41.050,-3.863,5.425,-37.725,-39.487,-28.998,38.478,-8.736,-0.049,-32.5,59.99,128, , ,"109B"
-43.113,-4.062,5.588,-39.825,-41.588,-30.390,37.932,-6.768,-0.077,-32.5,59.99,128, , ,"1086"
-45.175,-4.275,5.725,-41.925,-43.725,-31.728,37.296,-4.800,-0.098,-32.5,59.99,128, , ,"1081"
-46.875,-4.375,5.700,-43.838,-45.550,-33.024,36.552,-2.784,-0.091,-32.5,59.99,128, ,"E3900000800000000010002300000000000C80130FAF280D0000000120000424000000000000000000000000000005000000000000000000010100006E0F7C00200800000000000008000026A000C08000000000000000000000000000000000000000002000000000000000000000","3B8D"
-48.325,-4.713,5.713,-45.613,-47.325,-34.224,35.700,-0.780,-0.091,-24.0,59.99,128, , ,"105F"
-49.650,-5.125,5.775,-47.325,-49.000,-35.328,34.752,1.200,-0.098,-24.0,59.99,128, , ,"103B"
-50.938,-5.425,5.762,-48.900,-50.600,-36.342,33.672,3.186,-0.077,-24.0,59.99,128, , ,"1042"
-52.025,-5.575,5.538,-50.313,-52.063,-37.248,32.514,5.154,-0.091,-24.0,59.99,128, , ,"1033"
-52.913,-5.562,5.225,-51.388,-53.250,-38.004,31.296,7.032,-0.084,-24.0,59.99,128, , ,"1036"
-53.588,-5.538,4.913,-52.400,-54.213,-38.610,30.018,8.874,-0.091,-24.0,59.99,128, , ,"103E"
-53.825,-5.725,4.612,-53.213,-54.938,-39.072,28.656,10.596,-0.077,-24.0,59.99,128, , ,"1083"
-54.025,-6.100,4.362,-53.838,-55.763,-39.384,27.204,12.312,-0.098,-24.0,59.99,128, , ,"106D"
-54.100,-6.312,4.375,-54.213,-56.038,-39.588,25.638,13.980,-0.056,-24.0,59.99,128, , ,"1075"
-54.238,-6.463,4.437,-54.413,-56.263,-39.732,23.982,15.666,-0.091,-24.0,59.99,128, , ,"1082"
-54.300,-6.525,4.475,-54.425,-56.350,-39.810,22.278,17.424,-0.105,-24.0,59.99,128, , ,"1069"
-54.263,-6.700,4.550,-54.413,-56.413,-39.834,20.514,19.188,-0.098,-24.0,59.99,128, , ,"1074"
-54.075,-6.863,4.650,-54.363,-56.288,-39.798,18.732,20.940,-0.070,-24.0,59.99,128, , ,"108A"
-53.800,-7.012,4.600,-54.338,-56.213,-39.690,16.890,22.680,-0.070,-24.0,59.99,128, , ,"1066"
-53.363,-7.100,4.338,-54.188,-56.125,-39.510,15.054,24.342,-0.077,-24.0,59.99,128, , ,"1067"
-53.063,-7.075,4.137,-54.000,-56.000,-39.276,13.182,25.908,-0.070,-24.0,59.99,128, , ,"105E"
-52.363,-7.200,4.000,-53.638,-55.563,-38.922,11.274,27.396,-0.091,-24.0,59.99,128, , ,"106B"
-51.550,-7.475,3.988,-53.150,-55.038,-38.502,9.336,28.836,-0.091,-24.0,59.99,128, , ,"1050"
-50.763,-7.663,3.975,-52.488,-54.450,-37.998,7.374,30.246,-0.084,-24.0,59.99,128, , ,"1062"
-49.813,-7.713,4.000,-51.625,-53.525,-37.398,5.364,31.638,-0.077,-24.0,59.99,128, , ,"1047"
-48.688,-7.687,3.925,-50.663,-52.450,-36.714,3.354,32.982,-0.070,-24.0,59.99,128, , ,"1056"
-47.575,-7.663,3.738,-49.688,-51.500,-35.976,1.368,34.230,-0.098,-24.0,59.99,128, , ,"1060"
-46.238,-7.713,3.463,-48.625,-50.488,-35.136,-0.624,35.376,-0.084,-24.0,59.99,128, , ,"1078"
-44.800,-7.625,3.138,-47.550,-49.288,-34.200,-2.616,36.432,-0.091,-24.0,59.99,128, , ,"1066"
-43.275,-7.400,2.625,-46.313,-48.050,-33.162,-4.578,37.320,-0.091,-24.0,59.99,127, , ,"105B"
-41.750,-7.137,2.175,-44.838,-46.713,-32.022,-6.504,38.046,-0.077,-24.0,59.99,127, , ,"1067"
-40.113,-6.788,1.788,-43.150,-45.113,-30.810,-8.388,38.646,-0.056,-24.0,59.99,127, , ,"1070"
-38.250,-6.488,1.388,-41.325,-43.350,-29.508,-10.236,39.150,-0.098,-24.0,59.99,127, , ,"109F"
-36.250,-6.250,1.100,-39.425,-41.400,-28.068,-12.090,39.510,-0.091,-24.0,59.99,127, , ,"1079"
-34.063,-6.062,0.888,-37.413,-39.237,-26.532,-13.902,39.768,-0.091,-24.0,59.99,127, , ,"10A6"
-31.900,-5.838,0.700,-35.200,-37.038,-24.930,-15.696,39.966,-0.112,-24.0,59.99,127, , ,"1097"
-29.687,-5.663,0.525,-32.938,-34.825,-23.280,-17.490,40.092,-0.098,-24.0,59.99,127, ,"E3900000800000000010002300000000000C80130FAF280D0000000120000424000000000000000000000000000005000000000000000000010100006E0F7C00200800000000000008000026A000C08000000000000000000000000000000000000000002000000000000000000000","3BC1"
-27.350,-5.538,0.388,-30.687,-32.500,-21.600,-19.296,40.164,-0.084,32.5,59.99,127, , ,"106B"
-24.963,-5.413,0.163,-28.400,-30.213,-19.860,-21.048,40.170,-0.077,32.5,59.99,127, , ,"1058"
-22.413,-5.262,-0.200,-25.987,-27.875,-18.096,-22.746,40.068,-0.091,32.5,59.99,127, , ,"10A0"
-19.788,-5.113,-0.588,-23.550,-25.487,-16.284,-24.384,39.846,-0.084,32.5,59.99,127, , ,"10BB"
-17.112,-5.012,-0.838,-21.125,-22.962,-14.454,-25.932,39.552,-0.084,32.5,59.99,127, , ,"1090"
-14.363,-5.088,-0.988,-18.663,-20.438,-12.606,-27.426,39.156,-0.098,32.5,59.99,127, , ,"10B3"
-11.500,-5.200,-1.187,-16.213,-17.887,-10.728,-28.920,38.706,-0.084,32.5,59.99,127, , ,"1094"
-8.800,-5.238,-1.400,-13.700,-15.438,-8.808,-30.378,38.184,-0.063,32.5,59.99,127, , ,"1033"
-6.175,-5.262,-1.563,-11.138,-13.000,-6.876,-31.752,37.626,-0.056,32.5,59.99,127, , ,"1031"
-3.600,-5.163,-1.738,-8.700,-10.500,-4.926,-33.060,36.954,-0.063,32.5,59.99,127, , ,"0FF3"
-1.125,-5.038,-1.950,-6.312,-8.113,-2.964,-34.308,36.234,-0.077,32.5,59.99,127, , ,"0FC6"
1.238,-4.875,-2.188,-3.988,-5.825,-0.966,-35.436,35.394,-0.084,32.5,59.99,127, , ,"0FC8"
3.413,-4.463,-2.525,-1.863,-3.575,1.014,-36.426,34.428,-0.084,32.5,59.99,127, , ,"0F70"
5.187,-4.100,-2.775,0.100,-1.688,2.994,-37.308,33.360,-0.112,32.5,59.99,127, , ,"0F3E"
6.613,-3.750,-2.863,1.813,0.000,4.938,-38.058,32.184,-0.084,32.5,59.99,127, , ,"0F17"
8.225,-3.538,-2.900,3.625,1.787,6.822,-38.700,30.936,-0.084,32.5,59.99,127, , ,"0F25"
10.063,-3.388,-2.950,5.550,3.725,8.658,-39.276,29.592,-0.056,32.5,59.99,127, , ,"0F66"
11.925,-3.050,-3.013,7.613,5.862,10.458,-39.738,28.158,-0.091,32.5,59.99,127, , ,"0F83"
13.725,-2.738,-3.000,9.775,7.988,12.246,-40.098,26.658,-0.084,32.5,59.99,127, , ,"0F9A"
15.625,-2.475,-2.925,12.088,10.225,14.010,-40.308,25.092,-0.084,32.5,59.99,127, , ,"0FD1"
17.650,-2.175,-2.888,14.413,12.588,15.786,-40.434,23.484,-0.042,32.5,59.99,127, , ,"0FF0"
19.775,-1.988,-3.025,16.625,14.763,17.550,-40.524,21.828,-0.049,32.5,59.99,127, , ,"0FF7"
21.963,-1.713,-3.325,18.750,16.925,19.314,-40.512,20.064,-0.028,32.5,59.99,127, , ,"0FD8"
24.138,-1.400,-3.663,20.913,19.075,21.042,-40.416,18.222,-0.077,32.5,59.99,127, , ,"0FCD"
26.175,-1.075,-3.938,23.038,21.163,22.692,-40.230,16.308,-0.077,32.5,59.99,127, , ,"0FDE"
28.388,-0.850,-4.062,25.237,23.475,24.306,-39.984,14.418,-0.084,32.5,59.99,127, , ,"0FF6"
30.588,-0.688,-4.213,27.350,25.687,25.872,-39.618,12.480,-0.056,32.5,59.99,127, , ,"0FFC"
32.850,-0.513,-4.500,29.487,27.837,27.372,-39.186,10.536,-0.063,32.5,59.99,127, , ,"0FEF"
34.988,-0.250,-4.788,31.612,29.950,28.842,-38.694,8.592,-0.070,32.5,59.99,127, , ,"0FD7"
